
**** 05/18/25 15:02:30 **** PSpice 24.1.0 (23 January 2025) *** ID# 0 ********

 ** Profile: "SCHEMATIC1-param2"  [ C:\Users\peleg\Desktop\Proiect Cad Final\proiectcad2\proiectcad2-pspicefiles\schematic1\param2.si


 ****     CIRCUIT DESCRIPTION


******************************************************************************




** Creating circuit file "param2.cir" 
** WARNING: THIS AUTOMATICALLY GENERATED FILE MAY BE OVERWRITTEN BY SUBSEQUENT SIMULATIONS

*Libraries: 
* Profile Libraries :
* Local Libraries :
* From [PSPICE NETLIST] section of E:\orcadx\cdssetup\OrCAD_PSpice\24.1.0\PSpice.ini file:
.lib "nom.lib" 

*Analysis directives: 
.TRAN  0 600u 0 0.5u 
.STEP LIN PARAM Amax 0.1 0.45 0.05 
.OPTIONS ADVCONV
.PROBE64 V(alias(*)) I(alias(*)) W(alias(*)) D(alias(*)) NOISE(alias(*)) 
.INC "..\SCHEMATIC1.net" 



**** INCLUDING SCHEMATIC1.net ****
* source PROIECTCAD2
R_R1         N00472 N00142 R_R1 10k TC=0,0 
.model        R_R1 RES R=1 DEV=5% TC1=0 TC2=0
R_R2         N00142 N00159 R_R2 22k TC=0,0 
.model        R_R2 RES R=1 DEV=5% TC1=0 TC2=0
D_D1         N00323 N00159 D1N4148 
D_D2         N00159 N00319 D1N4148 
R_R3         N00323 N00327 R_R3 10k TC=0,0 
.model        R_R3 RES R=1 DEV=5% TC1=0 TC2=0
R_R4         N00319 N00327 R_R4 43.2k TC=0,0 
.model        R_R4 RES R=1 DEV=5% TC1=0 TC2=0
C_C1         N00327 N00472  1n  TC=0,0 
X_R5         N09198 N00645 N09194 POT PARAMS: SET={fumax} VALUE=10k
R_R9         10 N09194 R_R9 4.99k TC=0,0 
.model        R_R9 RES R=1 DEV=2% TC1=0 TC2=0
R_R10         N09198 -10 R_R10 10k TC=0,0 
.model        R_R10 RES R=1 DEV=5% TC1=0 TC2=0
V_V4         -10 0 -10V
V_V3         10 0 10V
X_U4A         0 N11257 10 -10 PWM TL082
R_R11         N06722 N11257 R_R11 10k TC=0,0 
.model        R_R11 RES R=1 DEV=5% TC1=0 TC2=0
X_R12         0 N11257 PWM POT PARAMS: SET={Amax} VALUE=10K
X_U4B         N00142 0 10 -10 N00159 TL082
X_U5A         0 N00327 10 -10 N00472 TL082
X_U5B         N00472 N00645 10 -10 N06722 TL082
.PARAM  fumin=0.35 amax=0.45 amin=0.1 fumax=0.75

**** RESUMING param2.cir ****
.END

**** 05/18/25 15:02:30 **** PSpice 24.1.0 (23 January 2025) *** ID# 0 ********

 ** Profile: "SCHEMATIC1-param2"  [ C:\Users\peleg\Desktop\Proiect Cad Final\proiectcad2\proiectcad2-pspicefiles\schematic1\param2.si


 ****     Diode MODEL PARAMETERS


******************************************************************************




               D1N4148         X_U4A.dx        X_U4A.dy        X_U4B.dx        
          IS    2.682000E-09  800.000000E-18  800.000000E-18  800.000000E-18 
           N    1.836                                                        
         ISR    1.565000E-09                                                 
         IKF     .04417                                                      
          BV  100                                                            
         IBV  100.000000E-06                                                 
          RS     .5664                          1.000000E-03                 
          TT   11.540000E-09                                                 
         CJO    4.000000E-12                   10.000000E-12                 
          VJ     .5                                                          
           M     .3333                                                       


               X_U4B.dy        X_U5A.dx        X_U5A.dy        X_U5B.dx        
          IS  800.000000E-18  800.000000E-18  800.000000E-18  800.000000E-18 
          RS    1.000000E-03                    1.000000E-03                 
         CJO   10.000000E-12                   10.000000E-12                 


               X_U5B.dy        
          IS  800.000000E-18 
          RS    1.000000E-03 
         CJO   10.000000E-12 


**** 05/18/25 15:02:30 **** PSpice 24.1.0 (23 January 2025) *** ID# 0 ********

 ** Profile: "SCHEMATIC1-param2"  [ C:\Users\peleg\Desktop\Proiect Cad Final\proiectcad2\proiectcad2-pspicefiles\schematic1\param2.si


 ****     Junction FET MODEL PARAMETERS


******************************************************************************




               X_U4A.jx1       X_U4A.jx2       X_U4B.jx1       X_U4B.jx2       
               NJF             NJF             NJF             NJF             
         VTO   -1              -1              -1              -1            
        BETA  222.070000E-06  222.070000E-06  222.070000E-06  222.070000E-06 
          IS  100.000000E-12  100.000000E-12  100.000000E-12  100.000000E-12 


               X_U5A.jx1       X_U5A.jx2       X_U5B.jx1       X_U5B.jx2       
               NJF             NJF             NJF             NJF             
         VTO   -1              -1              -1              -1            
        BETA  222.070000E-06  222.070000E-06  222.070000E-06  222.070000E-06 
          IS  100.000000E-12  100.000000E-12  100.000000E-12  100.000000E-12 


**** 05/18/25 15:02:30 **** PSpice 24.1.0 (23 January 2025) *** ID# 0 ********

 ** Profile: "SCHEMATIC1-param2"  [ C:\Users\peleg\Desktop\Proiect Cad Final\proiectcad2\proiectcad2-pspicefiles\schematic1\param2.si


 ****     Resistor MODEL PARAMETERS


******************************************************************************




               R_R1            R_R2            R_R3            R_R4            
           R    1               1               1               1            


               R_R9            R_R10           R_R11           
           R    1               1               1            


**** 05/18/25 15:02:30 **** PSpice 24.1.0 (23 January 2025) *** ID# 0 ********

 ** Profile: "SCHEMATIC1-param2"  [ C:\Users\peleg\Desktop\Proiect Cad Final\proiectcad2\proiectcad2-pspicefiles\schematic1\param2.si


 ****     INITIAL TRANSIENT SOLUTION       TEMPERATURE =   27.000 DEG C

 ****     CURRENT STEP                     PARAM AMAX =     .1   


******************************************************************************



 NODE   VOLTAGE     NODE   VOLTAGE     NODE   VOLTAGE     NODE   VOLTAGE


(   10)   10.0000  (  -10)  -10.0000  (  PWM)     .8499  (N00142) 14.13E-06     

(N00159)    -.0012 (N00319)-18.61E-06 (N00323)-15.20E-06 (N00327)-14.13E-06     

(N00472) 576.1E-06 (N00645)     .0040 (N06722)   -8.4991 (N09194)    6.0064     

(N09198)   -1.9968 (N11257)-17.37E-06 (X_U4A.6)-86.28E-06                       

(X_U4A.7)     .8924                   (X_U4A.8)     .8924                       

(X_U4A.9)    0.0000                   (X_U4B.6) 116.0E-09                       

(X_U4B.7)    -.0012                   (X_U4B.8)    -.0012                       

(X_U4B.9)    0.0000                   (X_U5A.6)-54.71E-09                       

(X_U5A.7) 578.9E-06                   (X_U5A.8) 578.9E-06                       

(X_U5A.9)    0.0000                   (X_U5B.6)     .0918                       

(X_U5B.7)  -10.4670                   (X_U5B.8)  -10.4670                       

(X_U5B.9)    0.0000                   (X_U4A.10)     .3992                      

(X_U4A.11)    9.5747                  (X_U4A.12)    9.5747                      

(X_U4A.53)    7.6842                  (X_U4A.54)   -7.6842                      

(X_U4A.90)     .8499                  (X_U4A.91)   40.0000                      

(X_U4A.92)  -40.0000                  (X_U4A.99)    0.0000                      

(X_U4B.10)     .3992                  (X_U4B.11)    9.5747                      

(X_U4B.12)    9.5747                  (X_U4B.53)    7.6842                      

(X_U4B.54)   -7.6842                  (X_U4B.90)-56.58E-06                      

(X_U4B.91)   40.0000                  (X_U4B.92)  -40.0000                      

(X_U4B.99)    0.0000                  (X_U5A.10)     .3992                      

(X_U5A.11)    9.5747                  (X_U5A.12)    9.5747                      

(X_U5A.53)    7.6842                  (X_U5A.54)   -7.6842                      

(X_U5A.90) 55.99E-06                  (X_U5A.91)   40.0000                      

(X_U5A.92)  -40.0000                  (X_U5A.99)    0.0000                      

(X_U5B.10)     .4015                  (X_U5B.11)    9.5723                      

(X_U5B.12)    9.5772                  (X_U5B.53)    7.6842                      

(X_U5B.54)   -7.6842                  (X_U5B.90)  -39.3590                      

(X_U5B.91)   40.0000                  (X_U5B.92)  -40.0000                      

(X_U5B.99)    0.0000                  




    VOLTAGE SOURCE CURRENTS
    NAME         CURRENT

    V_V4         2.338E-02
    V_V3        -6.189E-02
    X_U4A.vb    -8.628E-10
    X_U4A.vc     6.835E-12
    X_U4A.ve     9.587E-12
    X_U4A.vlim   8.499E-04
    X_U4A.vlp   -3.915E-11
    X_U4A.vln   -4.085E-11
    X_U4B.vb     1.160E-12
    X_U4B.vc     7.686E-12
    X_U4B.ve     8.736E-12
    X_U4B.vlim  -5.658E-08
    X_U4B.vlp   -4.000E-11
    X_U4B.vln   -4.000E-11
    X_U5A.vb    -5.471E-13
    X_U5A.vc     7.684E-12
    X_U5A.ve     8.737E-12
    X_U5A.vlim   5.599E-08
    X_U5A.vlp   -4.000E-11
    X_U5A.vln   -4.000E-11
    X_U5B.vb     9.182E-07
    X_U5B.vc     1.618E-11
    X_U5B.ve    -3.851E-02
    X_U5B.vlim  -3.936E-02
    X_U5B.vlp   -7.936E-11
    X_U5B.vln   -6.414E-13

    TOTAL POWER DISSIPATION   9.42E-01  WATTS


**** 05/18/25 15:02:30 **** PSpice 24.1.0 (23 January 2025) *** ID# 0 ********

 ** Profile: "SCHEMATIC1-param2"  [ C:\Users\peleg\Desktop\Proiect Cad Final\proiectcad2\proiectcad2-pspicefiles\schematic1\param2.si


 ****     INITIAL TRANSIENT SOLUTION       TEMPERATURE =   27.000 DEG C

 ****     CURRENT STEP                     PARAM AMAX =     .15  


******************************************************************************



 NODE   VOLTAGE     NODE   VOLTAGE     NODE   VOLTAGE     NODE   VOLTAGE


(   10)   10.0000  (  -10)  -10.0000  (  PWM)    1.2748  (N00142) 14.13E-06     

(N00159)    -.0012 (N00319)-18.61E-06 (N00323)-15.20E-06 (N00327)-14.13E-06     

(N00472) 576.1E-06 (N00645)     .0040 (N06722)   -8.4991 (N09194)    6.0064     

(N09198)   -1.9968 (N11257)-18.87E-06 (X_U4A.6)-126.3E-06                       

(X_U4A.7)    1.3173                   (X_U4A.8)    1.3173                       

(X_U4A.9)    0.0000                   (X_U4B.6) 116.0E-09                       

(X_U4B.7)    -.0012                   (X_U4B.8)    -.0012                       

(X_U4B.9)    0.0000                   (X_U5A.6)-54.69E-09                       

(X_U5A.7) 578.9E-06                   (X_U5A.8) 578.9E-06                       

(X_U5A.9)    0.0000                   (X_U5B.6)     .0918                       

(X_U5B.7)  -10.4670                   (X_U5B.8)  -10.4670                       

(X_U5B.9)    0.0000                   (X_U4A.10)     .3992                      

(X_U4A.11)    9.5747                  (X_U4A.12)    9.5747                      

(X_U4A.53)    7.6842                  (X_U4A.54)   -7.6842                      

(X_U4A.90)     .8499                  (X_U4A.91)   40.0000                      

(X_U4A.92)  -40.0000                  (X_U4A.99)    0.0000                      

(X_U4B.10)     .3992                  (X_U4B.11)    9.5747                      

(X_U4B.12)    9.5747                  (X_U4B.53)    7.6842                      

(X_U4B.54)   -7.6842                  (X_U4B.90)-56.62E-06                      

(X_U4B.91)   40.0000                  (X_U4B.92)  -40.0000                      

(X_U4B.99)    0.0000                  (X_U5A.10)     .3992                      

(X_U5A.11)    9.5747                  (X_U5A.12)    9.5747                      

(X_U5A.53)    7.6842                  (X_U5A.54)   -7.6842                      

(X_U5A.90) 55.99E-06                  (X_U5A.91)   40.0000                      

(X_U5A.92)  -40.0000                  (X_U5A.99)    0.0000                      

(X_U5B.10)     .4015                  (X_U5B.11)    9.5723                      

(X_U5B.12)    9.5772                  (X_U5B.53)    7.6842                      

(X_U5B.54)   -7.6842                  (X_U5B.90)  -39.3590                      

(X_U5B.91)   40.0000                  (X_U5B.92)  -40.0000                      

(X_U5B.99)    0.0000                  




    VOLTAGE SOURCE CURRENTS
    NAME         CURRENT

    V_V4         2.338E-02
    V_V3        -6.189E-02
    X_U4A.vb    -1.263E-09
    X_U4A.vc     6.410E-12
    X_U4A.ve     1.001E-11
    X_U4A.vlim   8.499E-04
    X_U4A.vlp   -3.915E-11
    X_U4A.vln   -4.085E-11
    X_U4B.vb     1.160E-12
    X_U4B.vc     7.686E-12
    X_U4B.ve     8.736E-12
    X_U4B.vlim  -5.662E-08
    X_U4B.vlp   -4.000E-11
    X_U4B.vln   -4.000E-11
    X_U5A.vb    -5.471E-13
    X_U5A.vc     7.684E-12
    X_U5A.ve     8.737E-12
    X_U5A.vlim   5.599E-08
    X_U5A.vlp   -4.000E-11
    X_U5A.vln   -4.000E-11
    X_U5B.vb     9.182E-07
    X_U5B.vc     1.618E-11
    X_U5B.ve    -3.851E-02
    X_U5B.vlim  -3.936E-02
    X_U5B.vlp   -7.936E-11
    X_U5B.vln   -6.414E-13

    TOTAL POWER DISSIPATION   9.42E-01  WATTS


**** 05/18/25 15:02:30 **** PSpice 24.1.0 (23 January 2025) *** ID# 0 ********

 ** Profile: "SCHEMATIC1-param2"  [ C:\Users\peleg\Desktop\Proiect Cad Final\proiectcad2\proiectcad2-pspicefiles\schematic1\param2.si


 ****     INITIAL TRANSIENT SOLUTION       TEMPERATURE =   27.000 DEG C

 ****     CURRENT STEP                     PARAM AMAX =     .2   


******************************************************************************



 NODE   VOLTAGE     NODE   VOLTAGE     NODE   VOLTAGE     NODE   VOLTAGE


(   10)   10.0000  (  -10)  -10.0000  (  PWM)    1.6998  (N00142) 14.13E-06     

(N00159)    -.0012 (N00319)-18.61E-06 (N00323)-15.20E-06 (N00327)-14.13E-06     

(N00472) 576.1E-06 (N00645)     .0040 (N06722)   -8.4991 (N09194)    6.0064     

(N09198)   -1.9968 (N11257)-20.38E-06 (X_U4A.6)-166.4E-06                       

(X_U4A.7)    1.7423                   (X_U4A.8)    1.7423                       

(X_U4A.9)    0.0000                   (X_U4B.6) 116.0E-09                       

(X_U4B.7)    -.0012                   (X_U4B.8)    -.0012                       

(X_U4B.9)    0.0000                   (X_U5A.6)-54.69E-09                       

(X_U5A.7) 578.9E-06                   (X_U5A.8) 578.9E-06                       

(X_U5A.9)    0.0000                   (X_U5B.6)     .0918                       

(X_U5B.7)  -10.4670                   (X_U5B.8)  -10.4670                       

(X_U5B.9)    0.0000                   (X_U4A.10)     .3992                      

(X_U4A.11)    9.5748                  (X_U4A.12)    9.5747                      

(X_U4A.53)    7.6842                  (X_U4A.54)   -7.6842                      

(X_U4A.90)     .8499                  (X_U4A.91)   40.0000                      

(X_U4A.92)  -40.0000                  (X_U4A.99)    0.0000                      

(X_U4B.10)     .3992                  (X_U4B.11)    9.5747                      

(X_U4B.12)    9.5747                  (X_U4B.53)    7.6842                      

(X_U4B.54)   -7.6842                  (X_U4B.90)-56.62E-06                      

(X_U4B.91)   40.0000                  (X_U4B.92)  -40.0000                      

(X_U4B.99)    0.0000                  (X_U5A.10)     .3992                      

(X_U5A.11)    9.5747                  (X_U5A.12)    9.5747                      

(X_U5A.53)    7.6842                  (X_U5A.54)   -7.6842                      

(X_U5A.90) 55.99E-06                  (X_U5A.91)   40.0000                      

(X_U5A.92)  -40.0000                  (X_U5A.99)    0.0000                      

(X_U5B.10)     .4015                  (X_U5B.11)    9.5723                      

(X_U5B.12)    9.5772                  (X_U5B.53)    7.6842                      

(X_U5B.54)   -7.6842                  (X_U5B.90)  -39.3590                      

(X_U5B.91)   40.0000                  (X_U5B.92)  -40.0000                      

(X_U5B.99)    0.0000                  




    VOLTAGE SOURCE CURRENTS
    NAME         CURRENT

    V_V4         2.338E-02
    V_V3        -6.189E-02
    X_U4A.vb    -1.664E-09
    X_U4A.vc     5.985E-12
    X_U4A.ve     1.044E-11
    X_U4A.vlim   8.499E-04
    X_U4A.vlp   -3.915E-11
    X_U4A.vln   -4.085E-11
    X_U4B.vb     1.160E-12
    X_U4B.vc     7.686E-12
    X_U4B.ve     8.736E-12
    X_U4B.vlim  -5.662E-08
    X_U4B.vlp   -4.000E-11
    X_U4B.vln   -4.000E-11
    X_U5A.vb    -5.471E-13
    X_U5A.vc     7.684E-12
    X_U5A.ve     8.737E-12
    X_U5A.vlim   5.599E-08
    X_U5A.vlp   -4.000E-11
    X_U5A.vln   -4.000E-11
    X_U5B.vb     9.182E-07
    X_U5B.vc     1.618E-11
    X_U5B.ve    -3.851E-02
    X_U5B.vlim  -3.936E-02
    X_U5B.vlp   -7.936E-11
    X_U5B.vln   -6.414E-13

    TOTAL POWER DISSIPATION   9.42E-01  WATTS


**** 05/18/25 15:02:30 **** PSpice 24.1.0 (23 January 2025) *** ID# 0 ********

 ** Profile: "SCHEMATIC1-param2"  [ C:\Users\peleg\Desktop\Proiect Cad Final\proiectcad2\proiectcad2-pspicefiles\schematic1\param2.si


 ****     INITIAL TRANSIENT SOLUTION       TEMPERATURE =   27.000 DEG C

 ****     CURRENT STEP                     PARAM AMAX =     .25  


******************************************************************************



 NODE   VOLTAGE     NODE   VOLTAGE     NODE   VOLTAGE     NODE   VOLTAGE


(   10)   10.0000  (  -10)  -10.0000  (  PWM)    2.1247  (N00142) 14.13E-06     

(N00159)    -.0012 (N00319)-18.61E-06 (N00323)-15.20E-06 (N00327)-14.13E-06     

(N00472) 576.1E-06 (N00645)     .0040 (N06722)   -8.4991 (N09194)    6.0064     

(N09198)   -1.9968 (N11257)-21.87E-06 (X_U4A.6)-206.4E-06                       

(X_U4A.7)    2.1672                   (X_U4A.8)    2.1672                       

(X_U4A.9)    0.0000                   (X_U4B.6) 116.0E-09                       

(X_U4B.7)    -.0012                   (X_U4B.8)    -.0012                       

(X_U4B.9)    0.0000                   (X_U5A.6)-54.69E-09                       

(X_U5A.7) 578.9E-06                   (X_U5A.8) 578.9E-06                       

(X_U5A.9)    0.0000                   (X_U5B.6)     .0918                       

(X_U5B.7)  -10.4670                   (X_U5B.8)  -10.4670                       

(X_U5B.9)    0.0000                   (X_U4A.10)     .3992                      

(X_U4A.11)    9.5748                  (X_U4A.12)    9.5747                      

(X_U4A.53)    7.6842                  (X_U4A.54)   -7.6842                      

(X_U4A.90)     .8499                  (X_U4A.91)   40.0000                      

(X_U4A.92)  -40.0000                  (X_U4A.99)    0.0000                      

(X_U4B.10)     .3992                  (X_U4B.11)    9.5747                      

(X_U4B.12)    9.5747                  (X_U4B.53)    7.6842                      

(X_U4B.54)   -7.6842                  (X_U4B.90)-56.62E-06                      

(X_U4B.91)   40.0000                  (X_U4B.92)  -40.0000                      

(X_U4B.99)    0.0000                  (X_U5A.10)     .3992                      

(X_U5A.11)    9.5747                  (X_U5A.12)    9.5747                      

(X_U5A.53)    7.6842                  (X_U5A.54)   -7.6842                      

(X_U5A.90) 55.99E-06                  (X_U5A.91)   40.0000                      

(X_U5A.92)  -40.0000                  (X_U5A.99)    0.0000                      

(X_U5B.10)     .4015                  (X_U5B.11)    9.5723                      

