
**** 05/18/25 15:14:57 **** PSpice 24.1.0 (23 January 2025) *** ID# 0 ********

 ** Profile: "SCHEMATIC1-monte_carlo"  [ C:\Users\peleg\Desktop\Proiect Cad Final\proiectcad2\proiectcad2-pspicefiles\schematic1\mont


 ****     CIRCUIT DESCRIPTION


******************************************************************************




** Creating circuit file "monte_carlo.cir" 
** WARNING: THIS AUTOMATICALLY GENERATED FILE MAY BE OVERWRITTEN BY SUBSEQUENT SIMULATIONS

*Libraries: 
* Profile Libraries :
* Local Libraries :
* From [PSPICE NETLIST] section of E:\orcadx\cdssetup\OrCAD_PSpice\24.1.0\PSpice.ini file:
.lib "nom.lib" 

*Analysis directives: 
.TRAN  0 600u 0 0.6u 
.MC 50 TRAN V([PWM]) YMAX OUTPUT ALL SEED=200 
.OPTIONS ADVCONV
.PROBE64 V(alias(*)) I(alias(*)) W(alias(*)) D(alias(*)) NOISE(alias(*)) 
.INC "..\SCHEMATIC1.net" 



**** INCLUDING SCHEMATIC1.net ****
* source PROIECTCAD2
R_R1         N00472 N00142 R_R1 10k TC=0,0 
.model        R_R1 RES R=1 DEV=5% TC1=0 TC2=0
R_R2         N00142 N00159 R_R2 22k TC=0,0 
.model        R_R2 RES R=1 DEV=5% TC1=0 TC2=0
D_D1         N00323 N00159 D1N4148 
D_D2         N00159 N00319 D1N4148 
R_R3         N00323 N00327 R_R3 10k TC=0,0 
.model        R_R3 RES R=1 DEV=5% TC1=0 TC2=0
R_R4         N00319 N00327 R_R4 43.2k TC=0,0 
.model        R_R4 RES R=1 DEV=5% TC1=0 TC2=0
C_C1         N00327 N00472  1n  TC=0,0 
X_R5         N09198 N00645 N09194 POT PARAMS: SET={fumax} VALUE=10k
R_R9         10 N09194 R_R9 4.99k TC=0,0 
.model        R_R9 RES R=1 DEV=2% TC1=0 TC2=0
R_R10         N09198 -10 R_R10 10k TC=0,0 
.model        R_R10 RES R=1 DEV=5% TC1=0 TC2=0
V_V4         -10 0 -10V
V_V3         10 0 10V
X_U4A         0 N11257 10 -10 PWM TL082
R_R11         N06722 N11257 R_R11 10k TC=0,0 
.model        R_R11 RES R=1 DEV=5% TC1=0 TC2=0
X_R12         0 N11257 PWM POT PARAMS: SET={Amax} VALUE=10K
X_U4B         N00142 0 10 -10 N00159 TL082
X_U5A         0 N00327 10 -10 N00472 TL082
X_U5B         N00472 N00645 10 -10 N06722 TL082
.PARAM  fumin=0.35 amax=0.45 amin=0.1 fumax=0.75

**** RESUMING monte_carlo.cir ****
.END

**** 05/18/25 15:14:57 **** PSpice 24.1.0 (23 January 2025) *** ID# 0 ********

 ** Profile: "SCHEMATIC1-monte_carlo"  [ C:\Users\peleg\Desktop\Proiect Cad Final\proiectcad2\proiectcad2-pspicefiles\schematic1\mont


 ****     Diode MODEL PARAMETERS


******************************************************************************




               D1N4148         X_U4A.dx        X_U4A.dy        X_U4B.dx        
          IS    2.682000E-09  800.000000E-18  800.000000E-18  800.000000E-18 
           N    1.836                                                        
         ISR    1.565000E-09                                                 
         IKF     .04417                                                      
          BV  100                                                            
         IBV  100.000000E-06                                                 
          RS     .5664                          1.000000E-03                 
          TT   11.540000E-09                                                 
         CJO    4.000000E-12                   10.000000E-12                 
          VJ     .5                                                          
           M     .3333                                                       


               X_U4B.dy        X_U5A.dx        X_U5A.dy        X_U5B.dx        
          IS  800.000000E-18  800.000000E-18  800.000000E-18  800.000000E-18 
          RS    1.000000E-03                    1.000000E-03                 
         CJO   10.000000E-12                   10.000000E-12                 


               X_U5B.dy        
          IS  800.000000E-18 
          RS    1.000000E-03 
         CJO   10.000000E-12 


**** 05/18/25 15:14:57 **** PSpice 24.1.0 (23 January 2025) *** ID# 0 ********

 ** Profile: "SCHEMATIC1-monte_carlo"  [ C:\Users\peleg\Desktop\Proiect Cad Final\proiectcad2\proiectcad2-pspicefiles\schematic1\mont


 ****     Junction FET MODEL PARAMETERS


******************************************************************************




               X_U4A.jx1       X_U4A.jx2       X_U4B.jx1       X_U4B.jx2       
               NJF             NJF             NJF             NJF             
         VTO   -1              -1              -1              -1            
        BETA  222.070000E-06  222.070000E-06  222.070000E-06  222.070000E-06 
          IS  100.000000E-12  100.000000E-12  100.000000E-12  100.000000E-12 


               X_U5A.jx1       X_U5A.jx2       X_U5B.jx1       X_U5B.jx2       
               NJF             NJF             NJF             NJF             
         VTO   -1              -1              -1              -1            
        BETA  222.070000E-06  222.070000E-06  222.070000E-06  222.070000E-06 
          IS  100.000000E-12  100.000000E-12  100.000000E-12  100.000000E-12 


**** 05/18/25 15:14:57 **** PSpice 24.1.0 (23 January 2025) *** ID# 0 ********

 ** Profile: "SCHEMATIC1-monte_carlo"  [ C:\Users\peleg\Desktop\Proiect Cad Final\proiectcad2\proiectcad2-pspicefiles\schematic1\mont


 ****     Resistor MODEL PARAMETERS


******************************************************************************




               R_R1            R_R2            R_R3            R_R4            
           R    1               1               1               1            


               R_R9            R_R10           R_R11           
           R    1               1               1            


**** 05/18/25 15:14:57 **** PSpice 24.1.0 (23 January 2025) *** ID# 0 ********

 ** Profile: "SCHEMATIC1-monte_carlo"  [ C:\Users\peleg\Desktop\Proiect Cad Final\proiectcad2\proiectcad2-pspicefiles\schematic1\mont


 ****     INITIAL TRANSIENT SOLUTION       TEMPERATURE =   27.000 DEG C

                      MONTE CARLO NOMINAL

******************************************************************************



 NODE   VOLTAGE     NODE   VOLTAGE     NODE   VOLTAGE     NODE   VOLTAGE


(   10)   10.0000  (  -10)  -10.0000  (  PWM)    3.8245  (N00142) 14.13E-06     

(N00159)    -.0012 (N00319)-18.61E-06 (N00323)-15.20E-06 (N00327)-14.13E-06     

(N00472) 576.1E-06 (N00645)     .0040 (N06722)   -8.4991 (N09194)    6.0064     

(N09198)   -1.9968 (N11257)-27.87E-06 (X_U4A.6)-366.6E-06                       

(X_U4A.7)    3.8670                   (X_U4A.8)    3.8670                       

(X_U4A.9)    0.0000                   (X_U4B.6) 116.0E-09                       

(X_U4B.7)    -.0012                   (X_U4B.8)    -.0012                       

(X_U4B.9)    0.0000                   (X_U5A.6)-54.71E-09                       

(X_U5A.7) 578.9E-06                   (X_U5A.8) 578.9E-06                       

(X_U5A.9)    0.0000                   (X_U5B.6)     .0918                       

(X_U5B.7)  -10.4670                   (X_U5B.8)  -10.4670                       

(X_U5B.9)    0.0000                   (X_U4A.10)     .3992                      

(X_U4A.11)    9.5748                  (X_U4A.12)    9.5747                      

(X_U4A.53)    7.6842                  (X_U4A.54)   -7.6842                      

(X_U4A.90)     .8499                  (X_U4A.91)   40.0000                      

(X_U4A.92)  -40.0000                  (X_U4A.99)    0.0000                      

(X_U4B.10)     .3992                  (X_U4B.11)    9.5747                      

(X_U4B.12)    9.5747                  (X_U4B.53)    7.6842                      

(X_U4B.54)   -7.6842                  (X_U4B.90)-56.62E-06                      

(X_U4B.91)   40.0000                  (X_U4B.92)  -40.0000                      

(X_U4B.99)    0.0000                  (X_U5A.10)     .3992                      

(X_U5A.11)    9.5747                  (X_U5A.12)    9.5747                      

(X_U5A.53)    7.6842                  (X_U5A.54)   -7.6842                      

(X_U5A.90) 55.99E-06                  (X_U5A.91)   40.0000                      

(X_U5A.92)  -40.0000                  (X_U5A.99)    0.0000                      

(X_U5B.10)     .4015                  (X_U5B.11)    9.5723                      

(X_U5B.12)    9.5772                  (X_U5B.53)    7.6842                      

(X_U5B.54)   -7.6842                  (X_U5B.90)  -39.3590                      

(X_U5B.91)   40.0000                  (X_U5B.92)  -40.0000                      

(X_U5B.99)    0.0000                  




    VOLTAGE SOURCE CURRENTS
    NAME         CURRENT

    V_V4         2.338E-02
    V_V3        -6.189E-02
    X_U4A.vb    -3.666E-09
    X_U4A.vc     3.860E-12
    X_U4A.ve     1.256E-11
    X_U4A.vlim   8.499E-04
    X_U4A.vlp   -3.915E-11
    X_U4A.vln   -4.085E-11
    X_U4B.vb     1.160E-12
    X_U4B.vc     7.686E-12
    X_U4B.ve     8.736E-12
    X_U4B.vlim  -5.662E-08
    X_U4B.vlp   -4.000E-11
    X_U4B.vln   -4.000E-11
    X_U5A.vb    -5.471E-13
    X_U5A.vc     7.684E-12
    X_U5A.ve     8.737E-12
    X_U5A.vlim   5.599E-08
    X_U5A.vlp   -4.000E-11
    X_U5A.vln   -4.000E-11
    X_U5B.vb     9.182E-07
    X_U5B.vc     1.618E-11
    X_U5B.ve    -3.851E-02
    X_U5B.vlim  -3.936E-02
    X_U5B.vlp   -7.936E-11
    X_U5B.vln   -6.415E-13

    TOTAL POWER DISSIPATION   9.42E-01  WATTS


**** 05/18/25 15:14:57 **** PSpice 24.1.0 (23 January 2025) *** ID# 0 ********

 ** Profile: "SCHEMATIC1-monte_carlo"  [ C:\Users\peleg\Desktop\Proiect Cad Final\proiectcad2\proiectcad2-pspicefiles\schematic1\mont


 ****     INITIAL TRANSIENT SOLUTION       TEMPERATURE =   27.000 DEG C

                      MONTE CARLO PASS 2

******************************************************************************



 NODE   VOLTAGE     NODE   VOLTAGE     NODE   VOLTAGE     NODE   VOLTAGE


(   10)   10.0000  (  -10)  -10.0000  (  PWM)   -3.6692  (N00142) 14.13E-06     

(N00159)    -.0012 (N00319)-18.81E-06 (N00323)-15.21E-06 (N00327)-14.13E-06     

(N00472) 591.6E-06 (N00645)    -.0238 (N06722)    8.4999 (N09194)    6.0350     

(N09198)   -2.0434 (N11257)-951.1E-09 (X_U4A.6) 351.7E-06                       

(X_U4A.7)   -3.7099                   (X_U4A.8)   -3.7099                       

(X_U4A.9)    0.0000                   (X_U4B.6) 116.0E-09                       

(X_U4B.7)    -.0012                   (X_U4B.8)    -.0012                       

(X_U4B.9)    0.0000                   (X_U5A.6)-56.16E-09                       

(X_U5A.7) 594.4E-06                   (X_U5A.8) 594.4E-06                       

(X_U5A.9)    0.0000                   (X_U5B.6)    -.6506                       

(X_U5B.7)   10.5290                   (X_U5B.8)   10.5290                       

(X_U5B.9)    0.0000                   (X_U4A.10)     .3992                      

(X_U4A.11)    9.5747                  (X_U4A.12)    9.5747                      

(X_U4A.53)    7.6842                  (X_U4A.54)   -7.6842                      

(X_U4A.90)    -.8154                  (X_U4A.91)   40.0000                      

(X_U4A.92)  -40.0000                  (X_U4A.99)    0.0000                      

(X_U4B.10)     .3992                  (X_U4B.11)    9.5747                      

(X_U4B.12)    9.5747                  (X_U4B.53)    7.6842                      

(X_U4B.54)   -7.6842                  (X_U4B.90)-56.21E-06                      

(X_U4B.91)   40.0000                  (X_U4B.92)  -40.0000                      

(X_U4B.99)    0.0000                  (X_U5A.10)     .3992                      

(X_U5A.11)    9.5747                  (X_U5A.12)    9.5747                      

(X_U5A.53)    7.6842                  (X_U5A.54)   -7.6842                      

(X_U5A.90) 55.58E-06                  (X_U5A.91)   40.0000                      

(X_U5A.92)  -40.0000                  (X_U5A.99)    0.0000                      

(X_U5B.10)     .3877                  (X_U5B.11)    9.5920                      

(X_U5B.12)    9.5575                  (X_U5B.53)    7.6842                      

(X_U5B.54)   -7.6842                  (X_U5B.90)   40.5860                      

(X_U5B.91)   40.0000                  (X_U5B.92)  -40.0000                      

(X_U5B.99)    0.0000                  




    VOLTAGE SOURCE CURRENTS
    NAME         CURRENT

    V_V4         6.189E-02
    V_V3        -2.212E-02
    X_U4A.vb     3.517E-09
    X_U4A.vc     1.135E-11
    X_U4A.ve     5.068E-12
    X_U4A.vlim  -8.154E-04
    X_U4A.vlp   -4.082E-11
    X_U4A.vln   -3.919E-11
    X_U4B.vb     1.160E-12
    X_U4B.vc     7.686E-12
    X_U4B.ve     8.736E-12
    X_U4B.vlim  -5.621E-08
    X_U4B.vlp   -4.000E-11
    X_U4B.vln   -4.000E-11
    X_U5A.vb    -5.616E-13
    X_U5A.vc     7.684E-12
    X_U5A.ve     8.737E-12
    X_U5A.vlim   5.558E-08
    X_U5A.vlp   -4.000E-11
    X_U5A.vln   -4.000E-11
    X_U5B.vb    -6.506E-06
    X_U5B.vc    -3.977E-02
    X_U5B.ve     1.724E-11
    X_U5B.vlim   4.059E-02
    X_U5B.vlp    5.617E-06
    X_U5B.vln   -8.059E-11

    TOTAL POWER DISSIPATION   9.32E-01  WATTS


**** 05/18/25 15:14:57 **** PSpice 24.1.0 (23 January 2025) *** ID# 0 ********

 ** Profile: "SCHEMATIC1-monte_carlo"  [ C:\Users\peleg\Desktop\Proiect Cad Final\proiectcad2\proiectcad2-pspicefiles\schematic1\mont


 ****     INITIAL TRANSIENT SOLUTION       TEMPERATURE =   27.000 DEG C

                      MONTE CARLO PASS 3

******************************************************************************



 NODE   VOLTAGE     NODE   VOLTAGE     NODE   VOLTAGE     NODE   VOLTAGE


(   10)   10.0000  (  -10)  -10.0000  (  PWM)    3.8647  (N00142) 14.13E-06     

(N00159)    -.0012 (N00319)-18.59E-06 (N00323)-15.16E-06 (N00327)-14.13E-06     

(N00472) 573.9E-06 (N00645)     .0647 (N06722)   -8.4999 (N09194)    6.0436     

(N09198)   -1.9283 (N11257)-27.96E-06 (X_U4A.6)-370.5E-06                       

(X_U4A.7)    3.9077                   (X_U4A.8)    3.9077                       

(X_U4A.9)    0.0000                   (X_U4B.6) 116.0E-09                       

(X_U4B.7)    -.0012                   (X_U4B.8)    -.0012                       

(X_U4B.9)    0.0000                   (X_U5A.6)-54.51E-09                       

(X_U5A.7) 576.8E-06                   (X_U5A.8) 576.8E-06                       

(X_U5A.9)    0.0000                   (X_U5B.6)    1.7086                       

(X_U5B.7)  -10.5310                   (X_U5B.8)  -10.5310                       

(X_U5B.9)    0.0000                   (X_U4A.10)     .3992                      

(X_U4A.11)    9.5748                  (X_U4A.12)    9.5747                      

(X_U4A.53)    7.6842                  (X_U4A.54)   -7.6842                      

(X_U4A.90)     .8588                  (X_U4A.91)   40.0000                      

(X_U4A.92)  -40.0000                  (X_U4A.99)    0.0000                      

(X_U4B.10)     .3992                  (X_U4B.11)    9.5747                      

(X_U4B.12)    9.5747                  (X_U4B.53)    7.6842                      

(X_U4B.54)   -7.6842                  (X_U4B.90)-57.74E-06                      

(X_U4B.91)   40.0000                  (X_U4B.92)  -40.0000                      

(X_U4B.99)    0.0000                  (X_U5A.10)     .3992                      

(X_U5A.11)    9.5747                  (X_U5A.12)    9.5747                      

(X_U5A.53)    7.6842                  (X_U5A.54)   -7.6842                      

(X_U5A.90) 57.11E-06                  (X_U5A.91)   40.0000                      

(X_U5A.92)  -40.0000                  (X_U5A.99)    0.0000                      

(X_U5B.10)     .4326                  (X_U5B.11)    9.5294                      

(X_U5B.12)    9.6200                  (X_U5B.53)    7.6842                      

(X_U5B.54)   -7.6842                  (X_U5B.90)  -40.6140                      

(X_U5B.91)   40.0000                  (X_U5B.92)  -40.0000                      

(X_U5B.99)    0.0000                  




    VOLTAGE SOURCE CURRENTS
    NAME         CURRENT

    V_V4         2.213E-02
    V_V3        -6.188E-02
    X_U4A.vb    -3.705E-09
    X_U4A.vc     3.820E-12
    X_U4A.ve     1.260E-11
    X_U4A.vlim   8.588E-04
    X_U4A.vlp   -3.914E-11
    X_U4A.vln   -4.086E-11
    X_U4B.vb     1.160E-12
    X_U4B.vc     7.686E-12
    X_U4B.ve     8.736E-12
    X_U4B.vlim  -5.774E-08
    X_U4B.vlp   -4.000E-11
    X_U4B.vln   -4.000E-11
    X_U5A.vb    -5.451E-13
    X_U5A.vc     7.684E-12
    X_U5A.ve     8.737E-12
    X_U5A.vlim   5.711E-08
    X_U5A.vlp   -4.000E-11
    X_U5A.vln   -4.000E-11
    X_U5B.vb     1.709E-05
    X_U5B.vc     1.618E-11
    X_U5B.ve    -3.976E-02
    X_U5B.vlim  -4.061E-02
    X_U5B.vlp   -8.061E-11
    X_U5B.vln    1.631E-05

    TOTAL POWER DISSIPATION   9.32E-01  WATTS


**** 05/18/25 15:14:57 **** PSpice 24.1.0 (23 January 2025) *** ID# 0 ********

 ** Profile: "SCHEMATIC1-monte_carlo"  [ C:\Users\peleg\Desktop\Proiect Cad Final\proiectcad2\proiectcad2-pspicefiles\schematic1\mont


 ****     INITIAL TRANSIENT SOLUTION       TEMPERATURE =   27.000 DEG C

                      MONTE CARLO PASS 4

******************************************************************************



 NODE   VOLTAGE     NODE   VOLTAGE     NODE   VOLTAGE     NODE   VOLTAGE


(   10)   10.0000  (  -10)  -10.0000  (  PWM)    3.7743  (N00142) 14.13E-06     

(N00159)    -.0012 (N00319)-18.82E-06 (N00323)-15.22E-06 (N00327)-14.13E-06     

(N00472) 597.3E-06 (N00645)     .0187 (N06722)   -8.4999 (N09194)    5.9672     

(N09198)   -1.9642 (N11257)-27.69E-06 (X_U4A.6)-361.8E-06                       

(X_U4A.7)    3.8163                   (X_U4A.8)    3.8163                       

(X_U4A.9)    0.0000                   (X_U4B.6) 116.1E-09                       

(X_U4B.7)    -.0012                   (X_U4B.8)    -.0012                       

(X_U4B.9)    0.0000                   (X_U5A.6)-56.72E-09                       

(X_U5A.7) 600.2E-06                   (X_U5A.8) 600.2E-06                       

(X_U5A.9)    0.0000                   (X_U5B.6)     .4832                       

(X_U5B.7)  -10.5290                   (X_U5B.8)  -10.5290                       

(X_U5B.9)    0.0000                   (X_U4A.10)     .3992                      

(X_U4A.11)    9.5748                  (X_U4A.12)    9.5747                      

(X_U4A.53)    7.6842                  (X_U4A.54)   -7.6842                      

(X_U4A.90)     .8387                  (X_U4A.91)   40.0000                      

(X_U4A.92)  -40.0000                  (X_U4A.99)    0.0000                      

(X_U4B.10)     .3992                  (X_U4B.11)    9.5747                      

(X_U4B.12)    9.5747                  (X_U4B.53)    7.6842                      

(X_U4B.54)   -7.6842                  (X_U4B.90)-58.40E-06                      

(X_U4B.91)   40.0000                  (X_U4B.92)  -40.0000                      

(X_U4B.99)    0.0000                  (X_U5A.10)     .3992                      

(X_U5A.11)    9.5747                  (X_U5A.12)    9.5747                      

(X_U5A.53)    7.6842                  (X_U5A.54)   -7.6842                      

(X_U5A.90) 57.77E-06                  (X_U5A.91)   40.0000                      

(X_U5A.92)  -40.0000                  (X_U5A.99)    0.0000                      

(X_U5B.10)     .4089                  (X_U5B.11)    9.5619                      

(X_U5B.12)    9.5875                  (X_U5B.53)    7.6842                      

